(1586543188.428072) vcan0 300#FF
(1586543188.436559) vcan0 300#00FF
(1586543188.443080) vcan0 300#0000FF
(1586543188.448722) vcan0 300#000000FF
(1586543188.458887) vcan0 300#00000000FF
(1586543188.463887) vcan0 300#0000000000FF
(1586543188.471696) vcan0 300#000000000000FF
(1586543188.476967) vcan0 300#00000000000000FF
(1586543197.363843) vcan0 300#FF
(1586543197.372512) vcan0 300#00FF
(1586543197.379792) vcan0 300#0000FF
(1586543197.413919) vcan0 300#000000FF
(1586543197.426784) vcan0 300#00000000FF
(1586543197.434887) vcan0 300#0000000000FF
(1586543197.443367) vcan0 300#000000000000FF
(1586543197.457135) vcan0 300#00000000000000FF
(1586543201.040137) vcan0 300#FF
(1586543201.045334) vcan0 300#00FF
(1586543201.056843) vcan0 300#0000FF
(1586543201.069885) vcan0 300#000000FF
(1586543201.075109) vcan0 300#00000000FF
(1586543201.079842) vcan0 300#0000000000FF
(1586543201.090290) vcan0 300#000000000000FF
(1586543201.105960) vcan0 300#00000000000000FF
(1586543230.519128) vcan0 202#6001606060606000
(1586543237.445881) vcan0 202#6001606060606000
(1586543239.026645) vcan0 202#6001606060606000
(1586543294.487575) vcan0 123#DEADBEEF
(1586543304.343213) vcan0 123#DEAD1337
(1586543377.982667) vcan0 400#7370
(1586543417.476422) vcan0 300#FF
(1586543417.481448) vcan0 300#00FF
(1586543417.491509) vcan0 300#0000FF
(1586543417.496286) vcan0 300#000000FF
(1586543417.507834) vcan0 300#00000000FF
(1586543417.512270) vcan0 300#0000000000FF
(1586543417.553209) vcan0 300#000000000000FF
(1586543417.562100) vcan0 300#00000000000000FF
(1586543471.203652) vcan0 510#10AD013CF048120B
(1586543471.209108) vcan0 510#10AD013CF048120B
(1586543471.220850) vcan0 510#10AD013CF048120B
(1586543471.231212) vcan0 510#10AD013CF048120B
(1586543471.237744) vcan0 510#10AD013CF048120B
(1586543471.242660) vcan0 510#10AD013CF048120B
(1586543471.252513) vcan0 510#10AD013CF048120B
(1586543471.267488) vcan0 510#10AD013CF048120B
(1586543471.273624) vcan0 510#10AD013CF048120B
(1586543471.281006) vcan0 510#10AD013CF048120B
(1586543471.286160) vcan0 510#10AD013CF048120B
(1586543471.297813) vcan0 510#10AD013CF048120B
(1586543471.310551) vcan0 510#10AD013CF048120B
(1586543471.316199) vcan0 510#10AD013CF048120B
(1586543471.325385) vcan0 510#10AD013CF048120B
(1586543471.333994) vcan0 510#10AD013CF048120B
(1586543471.342735) vcan0 510#10AD013CF048120B
(1586543471.348554) vcan0 510#10AD013CF048120B
(1586543471.356395) vcan0 510#10AD013CF048120B
(1586543471.364891) vcan0 510#10AD013CF048120B
(1586543471.375595) vcan0 510#10AD013CF048120B
(1586543471.381546) vcan0 510#10AD013CF048120B
(1586543471.392107) vcan0 510#10AD013CF048120B
(1586543471.399097) vcan0 510#10AD013CF048120B
(1586543471.404767) vcan0 510#10AD013CF048120B
(1586543471.410805) vcan0 510#10AD013CF048120B
(1586543471.424770) vcan0 510#10AD013CF048120B
(1586543471.429814) vcan0 510#10AD013CF048120B
(1586543471.437005) vcan0 510#10AD013CF048120B
(1586543471.445428) vcan0 510#10AD013CF048120B
(1586543471.453872) vcan0 510#10AD013CF048120B
(1586543471.465834) vcan0 510#10AD013CF048120B
(1586543471.470968) vcan0 510#10AD013CF048120B
(1586543471.486664) vcan0 510#10AD013CF048120B
(1586543471.526997) vcan0 510#10AD013CF048120B
(1586543471.535720) vcan0 510#10AD013CF048120B
(1586543471.547352) vcan0 510#10AD013CF048120B
(1586543471.552483) vcan0 510#10AD013CF048120B
(1586543471.558545) vcan0 510#10AD013CF048120B
(1586543471.563927) vcan0 510#10AD013CF048120B
(1586543471.574259) vcan0 510#10AD013CF048120B
(1586543471.582829) vcan0 510#10AD013CF048120B
(1586543471.591632) vcan0 510#10AD013CF048120B
(1586543471.597363) vcan0 510#10AD013CF048120B
(1586543471.610493) vcan0 510#10AD013CF048120B
(1586543471.615166) vcan0 510#10AD013CF048120B
(1586543471.624017) vcan0 510#10AD013CF048120B
(1586543471.629933) vcan0 510#10AD013CF048120B
(1586543471.642635) vcan0 510#10AD013CF048120B
(1586543471.649634) vcan0 510#10AD013CF048120B
(1586543471.654353) vcan0 510#10AD013CF048120B
(1586543471.660541) vcan0 510#10AD013CF048120B
(1586543471.676267) vcan0 510#10AD013CF048120B
(1586543471.684122) vcan0 510#10AD013CF048120B
(1586543471.689109) vcan0 510#10AD013CF048120B
(1586543471.697743) vcan0 510#10AD013CF048120B
(1586543471.705309) vcan0 510#10AD013CF048120B
(1586543471.713627) vcan0 510#10AD013CF048120B
(1586543471.718609) vcan0 510#10AD013CF048120B
(1586543471.729336) vcan0 510#10AD013CF048120B
(1586543471.736942) vcan0 510#10AD013CF048120B
(1586543471.745322) vcan0 510#10AD013CF048120B
(1586543471.750450) vcan0 510#10AD013CF048120B
(1586543471.760971) vcan0 510#10AD013CF048120B
(1586543471.769484) vcan0 510#10AD013CF048120B
(1586543471.777192) vcan0 510#10AD013CF048120B
(1586543471.782136) vcan0 510#10AD013CF048120B
(1586543471.792941) vcan0 510#10AD013CF048120B
(1586543471.799565) vcan0 510#10AD013CF048120B
(1586543471.806910) vcan0 510#10AD013CF048120B
(1586543471.812213) vcan0 510#10AD013CF048120B
(1586543471.825854) vcan0 510#10AD013CF048120B
(1586543471.830704) vcan0 510#10AD013CF048120B
(1586543471.837542) vcan0 510#10AD013CF048120B
(1586543471.843775) vcan0 510#10AD013CF048120B
(1586543471.856461) vcan0 510#10AD013CF048120B
(1586543471.862320) vcan0 510#10AD013CF048120B
(1586543471.868234) vcan0 510#10AD013CF048120B
(1586543471.873127) vcan0 510#10AD013CF048120B
(1586543471.884002) vcan0 510#10AD013CF048120B
(1586543471.893174) vcan0 510#10AD013CF048120B
(1586543471.929057) vcan0 510#10AD013CF048120B
(1586543471.934316) vcan0 510#10AD013CF048120B
(1586543471.940914) vcan0 510#10AD013CF048120B
(1586543471.953329) vcan0 510#10AD013CF048120B
(1586543471.962158) vcan0 510#10AD013CF048120B
(1586543471.967533) vcan0 510#10AD013CF048120B
(1586543471.979007) vcan0 510#10AD013CF048120B
(1586543471.986887) vcan0 510#10AD013CF048120B
(1586543471.996011) vcan0 510#10AD013CF048120B
(1586543472.001394) vcan0 510#10AD013CF048120B
(1586543472.013975) vcan0 510#10AD013CF048120B
(1586543472.020775) vcan0 510#10AD013CF048120B
(1586543472.026875) vcan0 510#10AD013CF048120B
(1586543472.031839) vcan0 510#10AD013CF048120B
(1586543472.044311) vcan0 510#10AD013CF048120B
(1586543472.051603) vcan0 510#10AD013CF048120B
(1586543472.056814) vcan0 510#10AD013CF048120B
(1586543472.081354) vcan0 510#10AD013CF048120B
(1586543472.091886) vcan0 510#10AD013CF048120B
(1586543472.100017) vcan0 510#10AD013CF048120B
(1586543472.104518) vcan0 510#10AD013CF048120B
(1586543472.113370) vcan0 510#10AD013CF048120B
(1586543472.120974) vcan0 510#10AD013CF048120B
(1586543472.132288) vcan0 510#10AD013CF048120B
(1586543472.137382) vcan0 510#10AD013CF048120B
(1586543472.143644) vcan0 510#10AD013CF048120B
(1586543472.151413) vcan0 510#10AD013CF048120B
(1586543472.156406) vcan0 510#10AD013CF048120B
(1586543472.167118) vcan0 510#10AD013CF048120B
(1586543472.174733) vcan0 510#10AD013CF048120B
(1586543472.183403) vcan0 510#10AD013CF048120B
(1586543472.190911) vcan0 510#10AD013CF048120B
(1586543472.203503) vcan0 510#10AD013CF048120B
(1586543472.212739) vcan0 510#10AD013CF048120B
(1586543472.217710) vcan0 510#10AD013CF048120B
(1586543472.232141) vcan0 510#10AD013CF048120B
(1586543472.236842) vcan0 510#10AD013CF048120B
(1586543472.244355) vcan0 510#10AD013CF048120B
(1586543472.249043) vcan0 510#10AD013CF048120B
(1586543472.257849) vcan0 510#10AD013CF048120B
(1586543472.266283) vcan0 510#10AD013CF048120B
(1586543472.270969) vcan0 510#10AD013CF048120B
(1586543472.279268) vcan0 510#10AD013CF048120B
(1586543472.289419) vcan0 510#10AD013CF048120B
(1586543472.294262) vcan0 510#10AD013CF048120B
(1586543472.312396) vcan0 510#10AD013CF048120B
(1586543472.320094) vcan0 510#10AD013CF048120B
(1586543472.345774) vcan0 510#10AD013CF048120B
(1586543472.353888) vcan0 510#10AD013CF048120B
(1586543472.362094) vcan0 510#10AD013CF048120B
(1586543472.368745) vcan0 510#10AD013CF048120B
(1586543472.374149) vcan0 510#10AD013CF048120B
(1586543472.387933) vcan0 510#10AD013CF048120B
(1586543472.396452) vcan0 510#10AD013CF048120B
(1586543472.401495) vcan0 510#10AD013CF048120B
(1586543472.406534) vcan0 510#10AD013CF048120B
(1586543472.419515) vcan0 510#10AD013CF048120B
(1586543472.425672) vcan0 510#10AD013CF048120B
(1586543472.432413) vcan0 510#10AD013CF048120B
(1586543472.437509) vcan0 510#10AD013CF048120B
(1586543472.451400) vcan0 510#10AD013CF048120B
(1586543472.460126) vcan0 510#10AD013CF048120B
(1586543472.465334) vcan0 510#10AD013CF048120B
(1586543472.476459) vcan0 510#10AD013CF048120B
(1586543472.484401) vcan0 510#10AD013CF048120B
(1586543472.493420) vcan0 510#10AD013CF048120B
(1586543472.499132) vcan0 510#10AD013CF048120B
(1586543472.512615) vcan0 510#10AD013CF048120B
(1586543472.518911) vcan0 510#10AD013CF048120B
(1586543472.523777) vcan0 510#10AD013CF048120B
(1586543472.529947) vcan0 510#10AD013CF048120B
(1586543472.543743) vcan0 510#10AD013CF048120B
(1586543472.549505) vcan0 510#10AD013CF048120B
(1586543472.557760) vcan0 510#10AD013CF048120B
(1586543472.569184) vcan0 510#10AD013CF048120B
(1586543472.578530) vcan0 510#10AD013CF048120B
(1586543472.584538) vcan0 510#10AD013CF048120B
(1586543472.590049) vcan0 510#10AD013CF048120B
(1586543472.604978) vcan0 510#10AD013CF048120B
(1586543472.613614) vcan0 510#10AD013CF048120B
(1586543472.618910) vcan0 510#10AD013CF048120B
(1586543472.625861) vcan0 510#10AD013CF048120B
(1586543472.638180) vcan0 510#10AD013CF048120B
(1586543472.647238) vcan0 510#10AD013CF048120B
(1586543472.652770) vcan0 510#10AD013CF048120B
(1586543472.662331) vcan0 510#10AD013CF048120B
(1586543472.670389) vcan0 510#10AD013CF048120B
(1586543472.681100) vcan0 510#10AD013CF048120B
(1586543472.691648) vcan0 510#10AD013CF048120B
(1586543472.698128) vcan0 510#10AD013CF048120B
(1586543472.703284) vcan0 510#10AD013CF048120B
(1586543472.709883) vcan0 510#10AD013CF048120B
(1586543472.714832) vcan0 510#10AD013CF048120B
(1586543472.725730) vcan0 510#10AD013CF048120B
(1586543472.761485) vcan0 510#10AD013CF048120B
(1586543472.768804) vcan0 510#10AD013CF048120B
(1586543472.773780) vcan0 510#10AD013CF048120B
(1586543472.789673) vcan0 510#10AD013CF048120B
(1586543472.796394) vcan0 510#10AD013CF048120B
(1586543472.802738) vcan0 510#10AD013CF048120B
(1586543472.807870) vcan0 510#10AD013CF048120B
(1586543472.817106) vcan0 510#10AD013CF048120B
(1586543472.829734) vcan0 510#10AD013CF048120B
(1586543472.835293) vcan0 510#10AD013CF048120B
(1586543472.845955) vcan0 510#10AD013CF048120B
(1586543472.854809) vcan0 510#10AD013CF048120B
(1586543472.864654) vcan0 510#10AD013CF048120B
(1586543472.870086) vcan0 510#10AD013CF048120B
(1586543472.885424) vcan0 510#10AD013CF048120B
(1586543472.892265) vcan0 510#10AD013CF048120B
(1586543472.898181) vcan0 510#10AD013CF048120B
(1586543472.908743) vcan0 510#10AD013CF048120B
(1586543472.916815) vcan0 510#10AD013CF048120B
(1586543472.922618) vcan0 510#10AD013CF048120B
(1586543472.929022) vcan0 510#10AD013CF048120B
(1586543472.939502) vcan0 510#10AD013CF048120B
(1586543472.947319) vcan0 510#10AD013CF048120B
(1586543472.953868) vcan0 510#10AD013CF048120B
(1586543472.960252) vcan0 510#10AD013CF048120B
(1586543472.970987) vcan0 510#10AD013CF048120B
(1586543552.270240) vcan0 401#616365736174656C
(1586543571.314279) vcan0 7F1#0322F19000000000
(1586543599.412281) vcan0 7E0#020100
(1586543601.421365) vcan0 7E0#0103
(1586543603.430072) vcan0 7E0#0107
(1586543605.438221) vcan0 7E0#020900
(1586543617.054499) vcan0 7E0#020100
(1586543619.062204) vcan0 7E0#0103
(1586543621.071576) vcan0 7E0#0107
(1586543623.080935) vcan0 7E0#020900
(1586543638.938691) vcan0 600#021001
(1586543726.467251) vcan0 600#021001
(1586543738.799771) vcan0 300#FF
(1586543738.815488) vcan0 300#00FF
(1586543738.821020) vcan0 300#0000FF
(1586543738.831170) vcan0 300#000000FF
(1586543738.840255) vcan0 300#00000000FF
(1586543738.845369) vcan0 300#0000000000FF
(1586543738.860874) vcan0 300#000000000000FF
(1586543738.871683) vcan0 300#00000000000000FF
(1586543740.181527) vcan0 300#FF
(1586543740.194147) vcan0 300#00FF
(1586543740.199544) vcan0 300#0000FF
(1586543740.212199) vcan0 300#000000FF
(1586543740.217649) vcan0 300#00000000FF
(1586543740.222630) vcan0 300#0000000000FF
(1586543740.232772) vcan0 300#000000000000FF
(1586543740.245273) vcan0 300#00000000000000FF
(1586543741.489790) vcan0 300#FF
(1586543741.494932) vcan0 300#00FF
(1586543741.506217) vcan0 300#0000FF
(1586543741.519122) vcan0 300#000000FF
(1586543741.527557) vcan0 300#00000000FF
(1586543741.532731) vcan0 300#0000000000FF
(1586543741.548374) vcan0 300#000000000000FF
(1586543741.557589) vcan0 300#00000000000000FF
(1586543742.665009) vcan0 300#FF
(1586543742.670542) vcan0 300#00FF
(1586543742.680796) vcan0 300#0000FF
(1586543742.685341) vcan0 300#000000FF
(1586543742.692186) vcan0 300#00000000FF
(1586543742.700558) vcan0 300#0000000000FF
(1586543742.705000) vcan0 300#000000000000FF
(1586543742.714015) vcan0 300#00000000000000FF
(1586543743.968466) vcan0 300#FF
(1586543743.973715) vcan0 300#00FF
(1586543743.983564) vcan0 300#0000FF
(1586543744.018096) vcan0 300#000000FF
(1586543744.029561) vcan0 300#00000000FF
(1586543744.035125) vcan0 300#0000000000FF
(1586543744.040709) vcan0 300#000000000000FF
(1586543744.047887) vcan0 300#00000000000000FF
(1586543762.369765) vcan0 402#6C69746573686176
(1586543883.593255) vcan0 050#00000000000000
(1586543883.793596) vcan0 050#01000000000000
(1586543883.994863) vcan0 050#02000000000000
(1586543884.196378) vcan0 050#03000000000000
(1586543884.397931) vcan0 050#04000000000000
(1586543884.599534) vcan0 050#05000000000000
(1586543884.800127) vcan0 050#06000000000000
(1586543885.002080) vcan0 050#07000000000000
(1586543885.203512) vcan0 050#08000000000000
(1586543885.405059) vcan0 050#09000000000000
(1586543885.607043) vcan0 050#0A000000000000
(1586543885.807948) vcan0 050#0B000000000000
(1586543886.009354) vcan0 050#0C000000000000
(1586543886.211333) vcan0 050#0D000000000000
(1586543886.412981) vcan0 050#0E000000000000
(1586543886.614618) vcan0 050#0F000000000000
(1586543886.815032) vcan0 050#10000000000000
(1586543887.017065) vcan0 050#11000000000000
(1586543887.217380) vcan0 050#12000000000000
(1586543887.418881) vcan0 050#13000000000000
(1586543887.620432) vcan0 050#14000000000000
(1586543887.822466) vcan0 050#15000000000000
(1586543888.024899) vcan0 050#16000000000000
(1586543892.850273) vcan0 056#00000000000000
(1586543893.051793) vcan0 056#01000000000000
(1586543893.253625) vcan0 056#02000000000000
(1586543893.455283) vcan0 056#03000000000000
(1586543893.656301) vcan0 056#04000000000000
(1586543893.856744) vcan0 056#05000000000000
(1586543894.057660) vcan0 056#06000000000000
(1586543894.259030) vcan0 056#07000000000000
(1586543894.460235) vcan0 056#08000000000000
(1586543894.661272) vcan0 056#09000000000000
(1586543894.863194) vcan0 056#0A000000000000
(1586543895.064552) vcan0 056#0B000000000000
(1586543895.266007) vcan0 056#0C000000000000
(1586543895.467324) vcan0 056#0D000000000000
(1586543895.668709) vcan0 056#0E000000000000
(1586543895.869166) vcan0 056#0F000000000000
(1586543896.071092) vcan0 056#10000000000000
(1586543896.272618) vcan0 056#11000000000000
(1586543896.473122) vcan0 056#12000000000000
(1586543896.673408) vcan0 056#13000000000000
(1586543896.873976) vcan0 056#14000000000000
(1586543897.074426) vcan0 056#15000000000000
(1586543897.274586) vcan0 056#16000000000000
(1586543897.475725) vcan0 056#17000000000000
(1586543897.675885) vcan0 056#18000000000000
(1586543897.877312) vcan0 056#19000000000000
(1586543898.077616) vcan0 056#1A000000000000
(1586543898.279316) vcan0 056#1B000000000000
(1586543898.480541) vcan0 056#1C000000000000
(1586543898.681849) vcan0 056#1D000000000000
(1586543898.883078) vcan0 056#1E000000000000
(1586543899.084529) vcan0 056#1F000000000000
(1586543899.285761) vcan0 056#20000000000000
(1586543899.456723) vcan0 403#6563616E746F6F
(1586543899.485935) vcan0 056#21000000000000
(1586543899.686207) vcan0 056#22000000000000
(1586543899.888084) vcan0 056#23000000000000
(1586543900.089552) vcan0 056#24000000000000
(1586543900.289722) vcan0 056#25000000000000
(1586543900.490718) vcan0 056#26000000000000
(1586543900.692810) vcan0 056#27000000000000
(1586543900.894303) vcan0 056#28000000000000
(1586543901.096471) vcan0 056#29000000000000
(1586543901.297159) vcan0 056#2A000000000000
(1586543901.499404) vcan0 056#2B000000000000
(1586543901.699651) vcan0 056#2C000000000000
(1586543901.900356) vcan0 056#2D000000000000
(1586543902.100794) vcan0 056#2E000000000000
(1586543902.301183) vcan0 056#2F000000000000
(1586543902.502548) vcan0 056#30000000000000
(1586543902.704273) vcan0 056#31000000000000
(1586543902.906252) vcan0 056#32000000000000
(1586543903.108316) vcan0 056#33000000000000
(1586543903.309193) vcan0 056#34000000000000
(1586543903.511489) vcan0 056#35000000000000
(1586543903.711800) vcan0 056#36000000000000
(1586543903.913476) vcan0 056#37000000000000
(1586543904.114730) vcan0 056#38000000000000
(1586543904.316721) vcan0 056#39000000000000
(1586543904.517595) vcan0 056#3A000000000000
(1586543904.718374) vcan0 056#3B000000000000
(1586543904.919065) vcan0 056#3C000000000000
(1586543905.119665) vcan0 056#3D000000000000
(1586543905.320356) vcan0 056#3E000000000000
(1586543905.521139) vcan0 056#3F000000000000
(1586543905.723292) vcan0 056#40000000000000
(1586543905.924882) vcan0 056#41000000000000
(1586543906.126027) vcan0 056#42000000000000
(1586543906.327128) vcan0 056#43000000000000
(1586543906.527397) vcan0 056#44000000000000
(1586543906.729188) vcan0 056#45000000000000
(1586543906.929388) vcan0 056#46000000000000
(1586543907.130216) vcan0 056#47000000000000
(1586543907.332168) vcan0 056#48000000000000
(1586543907.534309) vcan0 056#49000000000000
(1586543907.735512) vcan0 056#4A000000000000
(1586543907.935708) vcan0 056#4B000000000000
(1586543908.136945) vcan0 056#4C000000000000
(1586543908.337852) vcan0 056#4D000000000000
(1586543908.538654) vcan0 056#4E000000000000
(1586543908.739323) vcan0 056#4F000000000000
(1586543908.939814) vcan0 056#50000000000000
(1586543909.140627) vcan0 056#51000000000000
(1586543909.341225) vcan0 056#52000000000000
(1586543909.541456) vcan0 056#53000000000000
(1586543909.742462) vcan0 056#54000000000000
(1586543909.943780) vcan0 056#55000000000000
(1586543910.146082) vcan0 056#56000000000000
(1586543910.347532) vcan0 056#57000000000000
(1586543910.549582) vcan0 056#58000000000000
(1586543910.750591) vcan0 056#59000000000000
(1586543951.794673) vcan0 244#0000009999
(1586543951.799904) vcan0 188#030000
(1586543951.811153) vcan0 19B#00000F
(1586543951.816419) vcan0 19B#000010
(1586543951.828701) vcan0 244#0000009999
(1586543951.833757) vcan0 188#030000
(1586543951.845794) vcan0 19B#00000F
(1586543951.851106) vcan0 19B#000010
(1586543951.856426) vcan0 244#0000009999
(1586543951.861597) vcan0 188#030000
(1586543951.866828) vcan0 19B#00000F
(1586543951.872259) vcan0 19B#000010
(1586543951.877887) vcan0 244#0000009999
(1586543951.883723) vcan0 188#030000
(1586543951.889487) vcan0 19B#00000F
(1586543951.895186) vcan0 19B#000010
(1586543951.900695) vcan0 244#0000009999
(1586543951.907210) vcan0 188#030000
(1586543951.912766) vcan0 19B#00000F
(1586543951.918502) vcan0 19B#000010
(1586543951.924293) vcan0 244#0000009999
(1586543951.929889) vcan0 188#030000
(1586543951.935574) vcan0 19B#00000F
(1586543951.942046) vcan0 19B#000010
(1586543951.947703) vcan0 244#0000009999
(1586543951.953357) vcan0 188#030000
(1586543951.959019) vcan0 19B#00000F
(1586543951.964666) vcan0 19B#000010
(1586543951.970647) vcan0 244#0000009999
(1586543951.976371) vcan0 188#030000
(1586543951.982033) vcan0 19B#00000F
(1586543951.988053) vcan0 19B#000010
(1586543951.993765) vcan0 244#0000009999
(1586543951.999476) vcan0 188#030000
(1586543952.005379) vcan0 19B#00000F
(1586543952.011407) vcan0 19B#000010
(1586543952.017789) vcan0 244#0000009999
(1586543952.048262) vcan0 188#030000
(1586543952.054013) vcan0 19B#00000F
(1586543952.059531) vcan0 19B#000010
(1586543952.065376) vcan0 244#0000009999
(1586543952.071075) vcan0 188#030000
(1586543952.076586) vcan0 19B#00000F
(1586543952.082000) vcan0 19B#000010
(1586543952.087571) vcan0 244#0000009999
(1586543952.093097) vcan0 188#030000
(1586543952.098457) vcan0 19B#00000F
(1586543952.103934) vcan0 19B#000010
(1586543952.109250) vcan0 244#0000009999
(1586543952.114514) vcan0 188#030000
(1586543952.120632) vcan0 19B#00000F
(1586543952.126192) vcan0 19B#000010
(1586543952.131538) vcan0 244#0000009999
(1586543952.137181) vcan0 188#030000
(1586543952.142421) vcan0 19B#00000F
(1586543952.147902) vcan0 19B#000010
(1586543952.153419) vcan0 244#0000009999
(1586543952.158688) vcan0 188#030000
(1586543952.163872) vcan0 19B#00000F
(1586543952.169189) vcan0 19B#000010
(1586543952.174439) vcan0 244#0000009999
(1586543952.179571) vcan0 188#030000
(1586543952.184797) vcan0 19B#00000F
(1586543952.190339) vcan0 19B#000010
(1586543952.195867) vcan0 244#0000009999
(1586543952.201076) vcan0 188#030000
(1586543952.206297) vcan0 19B#00000F
(1586543952.211520) vcan0 19B#000010
(1586543952.216610) vcan0 244#0000009999
(1586543952.222002) vcan0 188#030000
(1586543952.227097) vcan0 19B#00000F
(1586543952.232254) vcan0 19B#000010
(1586543952.237691) vcan0 244#0000009999
(1586543952.242970) vcan0 188#030000
(1586543952.248989) vcan0 19B#00000F
(1586543952.255225) vcan0 19B#000010
(1586543952.260495) vcan0 244#0000009999
(1586543952.265732) vcan0 188#030000
(1586543952.271243) vcan0 19B#00000F
(1586543952.276397) vcan0 19B#000010
(1586543952.281891) vcan0 244#0000009999
(1586543952.287301) vcan0 188#030000
(1586543952.292727) vcan0 19B#00000F
(1586543952.298125) vcan0 19B#000010
(1586543952.303753) vcan0 244#0000009999
(1586543952.308995) vcan0 188#030000
(1586543952.314225) vcan0 19B#00000F
(1586543952.339735) vcan0 19B#000010
(1586543952.345226) vcan0 244#0000009999
(1586543952.350646) vcan0 188#030000
(1586543952.356016) vcan0 19B#00000F
(1586543952.361269) vcan0 19B#000010
(1586543952.366588) vcan0 244#0000009999
(1586543952.372092) vcan0 188#030000
(1586543952.377465) vcan0 19B#00000F
(1586543952.382763) vcan0 19B#000010
(1586543952.388123) vcan0 244#0000009999
(1586543952.394457) vcan0 188#030000
(1586543952.399827) vcan0 19B#00000F
(1586543952.405156) vcan0 19B#000010
(1586543952.410012) vcan0 244#0000009999
(1586543952.415080) vcan0 188#030000
(1586543952.420028) vcan0 19B#00000F
(1586543952.424902) vcan0 19B#000010
(1586543952.429797) vcan0 244#0000009999
(1586543952.434826) vcan0 188#030000
(1586543952.439772) vcan0 19B#00000F
(1586543952.445176) vcan0 19B#000010
(1586543952.450004) vcan0 244#0000009999
(1586543952.455093) vcan0 188#030000
(1586543952.459928) vcan0 19B#00000F
(1586543952.465177) vcan0 19B#000010
(1586543952.470409) vcan0 244#0000009999
(1586543952.475491) vcan0 188#030000
(1586543952.480477) vcan0 19B#00000F
(1586543952.485672) vcan0 19B#000010
(1586543952.490848) vcan0 244#0000009999
(1586543952.495881) vcan0 188#030000
(1586543952.500916) vcan0 19B#00000F
(1586543952.506426) vcan0 19B#000010
(1586543952.511433) vcan0 244#0000009999
(1586543952.516437) vcan0 188#030000
(1586543952.521602) vcan0 19B#00000F
(1586543952.526717) vcan0 19B#000010
(1586543952.531827) vcan0 244#0000009999
(1586543952.537062) vcan0 188#030000
(1586543952.542209) vcan0 19B#00000F
(1586543952.547491) vcan0 19B#000010
(1586543952.552996) vcan0 244#0000009999
(1586543952.558538) vcan0 188#030000
(1586543952.563870) vcan0 19B#00000F
(1586543952.569399) vcan0 19B#000010
(1586543952.574541) vcan0 244#0000009999
(1586543952.580180) vcan0 188#030000
(1586543952.585872) vcan0 19B#00000F
(1586543952.592862) vcan0 19B#000010
(1586543952.618641) vcan0 244#0000009999
(1586543952.626547) vcan0 188#030000
(1586543952.632636) vcan0 19B#00000F
(1586543952.638444) vcan0 19B#000010
(1586543952.643734) vcan0 244#0000009999
(1586543952.649271) vcan0 188#030000
(1586543952.658344) vcan0 19B#00000F
(1586543952.666785) vcan0 19B#000010
(1586543952.672995) vcan0 244#0000009999
(1586543952.679243) vcan0 188#030000
(1586543952.684605) vcan0 19B#00000F
(1586543952.692112) vcan0 19B#000010
(1586543952.698650) vcan0 244#0000009999
(1586543952.705437) vcan0 188#030000
(1586543952.711719) vcan0 19B#00000F
(1586543952.716538) vcan0 19B#000010
(1586543952.723647) vcan0 244#0000009999
(1586543952.729951) vcan0 188#030000
(1586543952.736423) vcan0 19B#00000F
(1586543952.742188) vcan0 19B#000010
(1586543952.748199) vcan0 244#0000009999
(1586543952.754625) vcan0 188#030000
(1586543952.759912) vcan0 19B#00000F
(1586543952.765161) vcan0 19B#000010
(1586543952.770319) vcan0 244#0000009999
(1586543952.775393) vcan0 188#030000
(1586543952.780674) vcan0 19B#00000F
(1586543952.786000) vcan0 19B#000010
(1586543952.791325) vcan0 244#0000009999
(1586543952.796467) vcan0 188#030000
(1586543952.801433) vcan0 19B#00000F
(1586543952.809362) vcan0 19B#000010
(1586543952.814411) vcan0 244#0000009999
(1586543952.819628) vcan0 188#030000
(1586543952.824462) vcan0 19B#00000F
(1586543952.829363) vcan0 19B#000010
(1586543952.834282) vcan0 244#0000009999
(1586543952.839384) vcan0 188#030000
(1586543952.844290) vcan0 19B#00000F
(1586543952.849145) vcan0 19B#000010
(1586543952.854115) vcan0 244#0000009999
(1586543952.859072) vcan0 188#030000
