date Sat Apr 11 02:26:28 2020
base hex  timestamps absolute
no internal events logged
   0.0000 1  300             Rx   d 1 FF
   0.0084 1  300             Rx   d 2 00 FF
   0.0150 1  300             Rx   d 3 00 00 FF
   0.0206 1  300             Rx   d 4 00 00 00 FF
   0.0308 1  300             Rx   d 5 00 00 00 00 FF
   0.0358 1  300             Rx   d 6 00 00 00 00 00 FF
   0.0436 1  300             Rx   d 7 00 00 00 00 00 00 FF
   0.0488 1  300             Rx   d 8 00 00 00 00 00 00 00 FF
   8.9357 1  300             Rx   d 1 FF
   8.9444 1  300             Rx   d 2 00 FF
   8.9517 1  300             Rx   d 3 00 00 FF
   8.9858 1  300             Rx   d 4 00 00 00 FF
   8.9987 1  300             Rx   d 5 00 00 00 00 FF
   9.0068 1  300             Rx   d 6 00 00 00 00 00 FF
   9.0152 1  300             Rx   d 7 00 00 00 00 00 00 FF
   9.0290 1  300             Rx   d 8 00 00 00 00 00 00 00 FF
  12.6120 1  300             Rx   d 1 FF
  12.6172 1  300             Rx   d 2 00 FF
  12.6287 1  300             Rx   d 3 00 00 FF
  12.6418 1  300             Rx   d 4 00 00 00 FF
  12.6470 1  300             Rx   d 5 00 00 00 00 FF
  12.6517 1  300             Rx   d 6 00 00 00 00 00 FF
  12.6622 1  300             Rx   d 7 00 00 00 00 00 00 FF
  12.6778 1  300             Rx   d 8 00 00 00 00 00 00 00 FF
  42.0910 1  202             Rx   d 8 60 01 60 60 60 60 60 00
  49.0178 1  202             Rx   d 8 60 01 60 60 60 60 60 00
  50.5985 1  202             Rx   d 8 60 01 60 60 60 60 60 00
 106.0595 1  123             Rx   d 4 DE AD BE EF
 115.9151 1  123             Rx   d 4 DE AD 13 37
 189.5545 1  400             Rx   d 2 73 70
 229.0483 1  300             Rx   d 1 FF
 229.0533 1  300             Rx   d 2 00 FF
 229.0634 1  300             Rx   d 3 00 00 FF
 229.0682 1  300             Rx   d 4 00 00 00 FF
 229.0797 1  300             Rx   d 5 00 00 00 00 FF
 229.0841 1  300             Rx   d 6 00 00 00 00 00 FF
 229.1251 1  300             Rx   d 7 00 00 00 00 00 00 FF
 229.1340 1  300             Rx   d 8 00 00 00 00 00 00 00 FF
 282.7755 1  510             Rx   d 8 10 AD 01 3C F0 48 12 0B
 282.7810 1  510             Rx   d 8 10 AD 01 3C F0 48 12 0B
 282.7927 1  510             Rx   d 8 10 AD 01 3C F0 48 12 0B
 282.8031 1  510             Rx   d 8 10 AD 01 3C F0 48 12 0B
 282.8096 1  510             Rx   d 8 10 AD 01 3C F0 48 12 0B
 282.8145 1  510             Rx   d 8 10 AD 01 3C F0 48 12 0B
 282.8244 1  510             Rx   d 8 10 AD 01 3C F0 48 12 0B
 282.8394 1  510             Rx   d 8 10 AD 01 3C F0 48 12 0B
 282.8455 1  510             Rx   d 8 10 AD 01 3C F0 48 12 0B
 282.8529 1  510             Rx   d 8 10 AD 01 3C F0 48 12 0B
 282.8580 1  510             Rx   d 8 10 AD 01 3C F0 48 12 0B
 282.8697 1  510             Rx   d 8 10 AD 01 3C F0 48 12 0B
 282.8824 1  510             Rx   d 8 10 AD 01 3C F0 48 12 0B
 282.8881 1  510             Rx   d 8 10 AD 01 3C F0 48 12 0B
 282.8973 1  510             Rx   d 8 10 AD 01 3C F0 48 12 0B
 282.9059 1  510             Rx   d 8 10 AD 01 3C F0 48 12 0B
 282.9146 1  510             Rx   d 8 10 AD 01 3C F0 48 12 0B
 282.9204 1  510             Rx   d 8 10 AD 01 3C F0 48 12 0B
 282.9283 1  510             Rx   d 8 10 AD 01 3C F0 48 12 0B
 282.9368 1  510             Rx   d 8 10 AD 01 3C F0 48 12 0B
 282.9475 1  510             Rx   d 8 10 AD 01 3C F0 48 12 0B
 282.9534 1  510             Rx   d 8 10 AD 01 3C F0 48 12 0B
 282.9640 1  510             Rx   d 8 10 AD 01 3C F0 48 12 0B
 282.9710 1  510             Rx   d 8 10 AD 01 3C F0 48 12 0B
 282.9766 1  510             Rx   d 8 10 AD 01 3C F0 48 12 0B
 282.9827 1  510             Rx   d 8 10 AD 01 3C F0 48 12 0B
 282.9966 1  510             Rx   d 8 10 AD 01 3C F0 48 12 0B
 283.0017 1  510             Rx   d 8 10 AD 01 3C F0 48 12 0B
 283.0089 1  510             Rx   d 8 10 AD 01 3C F0 48 12 0B
 283.0173 1  510             Rx   d 8 10 AD 01 3C F0 48 12 0B
 283.0258 1  510             Rx   d 8 10 AD 01 3C F0 48 12 0B
 283.0377 1  510             Rx   d 8 10 AD 01 3C F0 48 12 0B
 283.0428 1  510             Rx   d 8 10 AD 01 3C F0 48 12 0B
 283.0585 1  510             Rx   d 8 10 AD 01 3C F0 48 12 0B
 283.0989 1  510             Rx   d 8 10 AD 01 3C F0 48 12 0B
 283.1076 1  510             Rx   d 8 10 AD 01 3C F0 48 12 0B
 283.1192 1  510             Rx   d 8 10 AD 01 3C F0 48 12 0B
 283.1244 1  510             Rx   d 8 10 AD 01 3C F0 48 12 0B
 283.1304 1  510             Rx   d 8 10 AD 01 3C F0 48 12 0B
 283.1358 1  510             Rx   d 8 10 AD 01 3C F0 48 12 0B
 283.1461 1  510             Rx   d 8 10 AD 01 3C F0 48 12 0B
 283.1547 1  510             Rx   d 8 10 AD 01 3C F0 48 12 0B
 283.1635 1  510             Rx   d 8 10 AD 01 3C F0 48 12 0B
 283.1692 1  510             Rx   d 8 10 AD 01 3C F0 48 12 0B
 283.1824 1  510             Rx   d 8 10 AD 01 3C F0 48 12 0B
 283.1870 1  510             Rx   d 8 10 AD 01 3C F0 48 12 0B
 283.1959 1  510             Rx   d 8 10 AD 01 3C F0 48 12 0B
 283.2018 1  510             Rx   d 8 10 AD 01 3C F0 48 12 0B
 283.2145 1  510             Rx   d 8 10 AD 01 3C F0 48 12 0B
 283.2215 1  510             Rx   d 8 10 AD 01 3C F0 48 12 0B
 283.2262 1  510             Rx   d 8 10 AD 01 3C F0 48 12 0B
 283.2324 1  510             Rx   d 8 10 AD 01 3C F0 48 12 0B
 283.2481 1  510             Rx   d 8 10 AD 01 3C F0 48 12 0B
 283.2560 1  510             Rx   d 8 10 AD 01 3C F0 48 12 0B
 283.2610 1  510             Rx   d 8 10 AD 01 3C F0 48 12 0B
 283.2696 1  510             Rx   d 8 10 AD 01 3C F0 48 12 0B
 283.2772 1  510             Rx   d 8 10 AD 01 3C F0 48 12 0B
 283.2855 1  510             Rx   d 8 10 AD 01 3C F0 48 12 0B
 283.2905 1  510             Rx   d 8 10 AD 01 3C F0 48 12 0B
 283.3012 1  510             Rx   d 8 10 AD 01 3C F0 48 12 0B
 283.3088 1  510             Rx   d 8 10 AD 01 3C F0 48 12 0B
 283.3172 1  510             Rx   d 8 10 AD 01 3C F0 48 12 0B
 283.3223 1  510             Rx   d 8 10 AD 01 3C F0 48 12 0B
 283.3328 1  510             Rx   d 8 10 AD 01 3C F0 48 12 0B
 283.3414 1  510             Rx   d 8 10 AD 01 3C F0 48 12 0B
 283.3491 1  510             Rx   d 8 10 AD 01 3C F0 48 12 0B
 283.3540 1  510             Rx   d 8 10 AD 01 3C F0 48 12 0B
 283.3648 1  510             Rx   d 8 10 AD 01 3C F0 48 12 0B
 283.3714 1  510             Rx   d 8 10 AD 01 3C F0 48 12 0B
 283.3788 1  510             Rx   d 8 10 AD 01 3C F0 48 12 0B
 283.3841 1  510             Rx   d 8 10 AD 01 3C F0 48 12 0B
 283.3977 1  510             Rx   d 8 10 AD 01 3C F0 48 12 0B
 283.4026 1  510             Rx   d 8 10 AD 01 3C F0 48 12 0B
 283.4094 1  510             Rx   d 8 10 AD 01 3C F0 48 12 0B
 283.4157 1  510             Rx   d 8 10 AD 01 3C F0 48 12 0B
 283.4283 1  510             Rx   d 8 10 AD 01 3C F0 48 12 0B
 283.4342 1  510             Rx   d 8 10 AD 01 3C F0 48 12 0B
 283.4401 1  510             Rx   d 8 10 AD 01 3C F0 48 12 0B
 283.4450 1  510             Rx   d 8 10 AD 01 3C F0 48 12 0B
 283.4559 1  510             Rx   d 8 10 AD 01 3C F0 48 12 0B
 283.4651 1  510             Rx   d 8 10 AD 01 3C F0 48 12 0B
 283.5009 1  510             Rx   d 8 10 AD 01 3C F0 48 12 0B
 283.5062 1  510             Rx   d 8 10 AD 01 3C F0 48 12 0B
 283.5128 1  510             Rx   d 8 10 AD 01 3C F0 48 12 0B
 283.5252 1  510             Rx   d 8 10 AD 01 3C F0 48 12 0B
 283.5340 1  510             Rx   d 8 10 AD 01 3C F0 48 12 0B
 283.5394 1  510             Rx   d 8 10 AD 01 3C F0 48 12 0B
 283.5509 1  510             Rx   d 8 10 AD 01 3C F0 48 12 0B
 283.5588 1  510             Rx   d 8 10 AD 01 3C F0 48 12 0B
 283.5679 1  510             Rx   d 8 10 AD 01 3C F0 48 12 0B
 283.5733 1  510             Rx   d 8 10 AD 01 3C F0 48 12 0B
 283.5859 1  510             Rx   d 8 10 AD 01 3C F0 48 12 0B
 283.5927 1  510             Rx   d 8 10 AD 01 3C F0 48 12 0B
 283.5988 1  510             Rx   d 8 10 AD 01 3C F0 48 12 0B
 283.6037 1  510             Rx   d 8 10 AD 01 3C F0 48 12 0B
 283.6162 1  510             Rx   d 8 10 AD 01 3C F0 48 12 0B
 283.6235 1  510             Rx   d 8 10 AD 01 3C F0 48 12 0B
 283.6287 1  510             Rx   d 8 10 AD 01 3C F0 48 12 0B
 283.6532 1  510             Rx   d 8 10 AD 01 3C F0 48 12 0B
 283.6638 1  510             Rx   d 8 10 AD 01 3C F0 48 12 0B
 283.6719 1  510             Rx   d 8 10 AD 01 3C F0 48 12 0B
 283.6764 1  510             Rx   d 8 10 AD 01 3C F0 48 12 0B
 283.6852 1  510             Rx   d 8 10 AD 01 3C F0 48 12 0B
 283.6929 1  510             Rx   d 8 10 AD 01 3C F0 48 12 0B
 283.7042 1  510             Rx   d 8 10 AD 01 3C F0 48 12 0B
 283.7093 1  510             Rx   d 8 10 AD 01 3C F0 48 12 0B
 283.7155 1  510             Rx   d 8 10 AD 01 3C F0 48 12 0B
 283.7233 1  510             Rx   d 8 10 AD 01 3C F0 48 12 0B
 283.7283 1  510             Rx   d 8 10 AD 01 3C F0 48 12 0B
 283.7390 1  510             Rx   d 8 10 AD 01 3C F0 48 12 0B
 283.7466 1  510             Rx   d 8 10 AD 01 3C F0 48 12 0B
 283.7553 1  510             Rx   d 8 10 AD 01 3C F0 48 12 0B
 283.7628 1  510             Rx   d 8 10 AD 01 3C F0 48 12 0B
 283.7754 1  510             Rx   d 8 10 AD 01 3C F0 48 12 0B
 283.7846 1  510             Rx   d 8 10 AD 01 3C F0 48 12 0B
 283.7896 1  510             Rx   d 8 10 AD 01 3C F0 48 12 0B
 283.8040 1  510             Rx   d 8 10 AD 01 3C F0 48 12 0B
 283.8087 1  510             Rx   d 8 10 AD 01 3C F0 48 12 0B
 283.8162 1  510             Rx   d 8 10 AD 01 3C F0 48 12 0B
 283.8209 1  510             Rx   d 8 10 AD 01 3C F0 48 12 0B
 283.8297 1  510             Rx   d 8 10 AD 01 3C F0 48 12 0B
 283.8382 1  510             Rx   d 8 10 AD 01 3C F0 48 12 0B
 283.8428 1  510             Rx   d 8 10 AD 01 3C F0 48 12 0B
 283.8511 1  510             Rx   d 8 10 AD 01 3C F0 48 12 0B
 283.8613 1  510             Rx   d 8 10 AD 01 3C F0 48 12 0B
 283.8661 1  510             Rx   d 8 10 AD 01 3C F0 48 12 0B
 283.8843 1  510             Rx   d 8 10 AD 01 3C F0 48 12 0B
 283.8920 1  510             Rx   d 8 10 AD 01 3C F0 48 12 0B
 283.9177 1  510             Rx   d 8 10 AD 01 3C F0 48 12 0B
 283.9258 1  510             Rx   d 8 10 AD 01 3C F0 48 12 0B
 283.9340 1  510             Rx   d 8 10 AD 01 3C F0 48 12 0B
 283.9406 1  510             Rx   d 8 10 AD 01 3C F0 48 12 0B
 283.9460 1  510             Rx   d 8 10 AD 01 3C F0 48 12 0B
 283.9598 1  510             Rx   d 8 10 AD 01 3C F0 48 12 0B
 283.9683 1  510             Rx   d 8 10 AD 01 3C F0 48 12 0B
 283.9734 1  510             Rx   d 8 10 AD 01 3C F0 48 12 0B
 283.9784 1  510             Rx   d 8 10 AD 01 3C F0 48 12 0B
 283.9914 1  510             Rx   d 8 10 AD 01 3C F0 48 12 0B
 283.9976 1  510             Rx   d 8 10 AD 01 3C F0 48 12 0B
 284.0043 1  510             Rx   d 8 10 AD 01 3C F0 48 12 0B
 284.0094 1  510             Rx   d 8 10 AD 01 3C F0 48 12 0B
 284.0233 1  510             Rx   d 8 10 AD 01 3C F0 48 12 0B
 284.0320 1  510             Rx   d 8 10 AD 01 3C F0 48 12 0B
 284.0372 1  510             Rx   d 8 10 AD 01 3C F0 48 12 0B
 284.0483 1  510             Rx   d 8 10 AD 01 3C F0 48 12 0B
 284.0563 1  510             Rx   d 8 10 AD 01 3C F0 48 12 0B
 284.0653 1  510             Rx   d 8 10 AD 01 3C F0 48 12 0B
 284.0710 1  510             Rx   d 8 10 AD 01 3C F0 48 12 0B
 284.0845 1  510             Rx   d 8 10 AD 01 3C F0 48 12 0B
 284.0908 1  510             Rx   d 8 10 AD 01 3C F0 48 12 0B
 284.0957 1  510             Rx   d 8 10 AD 01 3C F0 48 12 0B
 284.1018 1  510             Rx   d 8 10 AD 01 3C F0 48 12 0B
 284.1156 1  510             Rx   d 8 10 AD 01 3C F0 48 12 0B
 284.1214 1  510             Rx   d 8 10 AD 01 3C F0 48 12 0B
 284.1296 1  510             Rx   d 8 10 AD 01 3C F0 48 12 0B
 284.1411 1  510             Rx   d 8 10 AD 01 3C F0 48 12 0B
 284.1504 1  510             Rx   d 8 10 AD 01 3C F0 48 12 0B
 284.1564 1  510             Rx   d 8 10 AD 01 3C F0 48 12 0B
 284.1619 1  510             Rx   d 8 10 AD 01 3C F0 48 12 0B
 284.1769 1  510             Rx   d 8 10 AD 01 3C F0 48 12 0B
 284.1855 1  510             Rx   d 8 10 AD 01 3C F0 48 12 0B
 284.1908 1  510             Rx   d 8 10 AD 01 3C F0 48 12 0B
 284.1977 1  510             Rx   d 8 10 AD 01 3C F0 48 12 0B
 284.2101 1  510             Rx   d 8 10 AD 01 3C F0 48 12 0B
 284.2191 1  510             Rx   d 8 10 AD 01 3C F0 48 12 0B
 284.2246 1  510             Rx   d 8 10 AD 01 3C F0 48 12 0B
 284.2342 1  510             Rx   d 8 10 AD 01 3C F0 48 12 0B
 284.2423 1  510             Rx   d 8 10 AD 01 3C F0 48 12 0B
 284.2530 1  510             Rx   d 8 10 AD 01 3C F0 48 12 0B
 284.2635 1  510             Rx   d 8 10 AD 01 3C F0 48 12 0B
 284.2700 1  510             Rx   d 8 10 AD 01 3C F0 48 12 0B
 284.2752 1  510             Rx   d 8 10 AD 01 3C F0 48 12 0B
 284.2818 1  510             Rx   d 8 10 AD 01 3C F0 48 12 0B
 284.2867 1  510             Rx   d 8 10 AD 01 3C F0 48 12 0B
 284.2976 1  510             Rx   d 8 10 AD 01 3C F0 48 12 0B
 284.3334 1  510             Rx   d 8 10 AD 01 3C F0 48 12 0B
 284.3407 1  510             Rx   d 8 10 AD 01 3C F0 48 12 0B
 284.3457 1  510             Rx   d 8 10 AD 01 3C F0 48 12 0B
 284.3616 1  510             Rx   d 8 10 AD 01 3C F0 48 12 0B
 284.3683 1  510             Rx   d 8 10 AD 01 3C F0 48 12 0B
 284.3746 1  510             Rx   d 8 10 AD 01 3C F0 48 12 0B
 284.3797 1  510             Rx   d 8 10 AD 01 3C F0 48 12 0B
 284.3890 1  510             Rx   d 8 10 AD 01 3C F0 48 12 0B
 284.4016 1  510             Rx   d 8 10 AD 01 3C F0 48 12 0B
 284.4072 1  510             Rx   d 8 10 AD 01 3C F0 48 12 0B
 284.4178 1  510             Rx   d 8 10 AD 01 3C F0 48 12 0B
 284.4267 1  510             Rx   d 8 10 AD 01 3C F0 48 12 0B
 284.4365 1  510             Rx   d 8 10 AD 01 3C F0 48 12 0B
 284.4420 1  510             Rx   d 8 10 AD 01 3C F0 48 12 0B
 284.4573 1  510             Rx   d 8 10 AD 01 3C F0 48 12 0B
 284.4641 1  510             Rx   d 8 10 AD 01 3C F0 48 12 0B
 284.4701 1  510             Rx   d 8 10 AD 01 3C F0 48 12 0B
 284.4806 1  510             Rx   d 8 10 AD 01 3C F0 48 12 0B
 284.4887 1  510             Rx   d 8 10 AD 01 3C F0 48 12 0B
 284.4945 1  510             Rx   d 8 10 AD 01 3C F0 48 12 0B
 284.5009 1  510             Rx   d 8 10 AD 01 3C F0 48 12 0B
 284.5114 1  510             Rx   d 8 10 AD 01 3C F0 48 12 0B
 284.5192 1  510             Rx   d 8 10 AD 01 3C F0 48 12 0B
 284.5257 1  510             Rx   d 8 10 AD 01 3C F0 48 12 0B
 284.5321 1  510             Rx   d 8 10 AD 01 3C F0 48 12 0B
 284.5429 1  510             Rx   d 8 10 AD 01 3C F0 48 12 0B
 363.8421 1  401             Rx   d 8 61 63 65 73 61 74 65 6C
 382.8862 1  7F1             Rx   d 8 03 22 F1 90 00 00 00 00
 410.9842 1  7E0             Rx   d 3 02 01 00
 412.9932 1  7E0             Rx   d 2 01 03
 415.0020 1  7E0             Rx   d 2 01 07
 417.0101 1  7E0             Rx   d 3 02 09 00
 428.6264 1  7E0             Rx   d 3 02 01 00
 430.6341 1  7E0             Rx   d 2 01 03
 432.6435 1  7E0             Rx   d 2 01 07
 434.6528 1  7E0             Rx   d 3 02 09 00
 450.5106 1  600             Rx   d 3 02 10 01
 538.0391 1  600             Rx   d 3 02 10 01
 550.3716 1  300             Rx   d 1 FF
 550.3874 1  300             Rx   d 2 00 FF
 550.3929 1  300             Rx   d 3 00 00 FF
 550.4030 1  300             Rx   d 4 00 00 00 FF
 550.4121 1  300             Rx   d 5 00 00 00 00 FF
 550.4172 1  300             Rx   d 6 00 00 00 00 00 FF
 550.4328 1  300             Rx   d 7 00 00 00 00 00 00 FF
 550.4436 1  300             Rx   d 8 00 00 00 00 00 00 00 FF
 551.7534 1  300             Rx   d 1 FF
 551.7660 1  300             Rx   d 2 00 FF
 551.7714 1  300             Rx   d 3 00 00 FF
 551.7841 1  300             Rx   d 4 00 00 00 FF
 551.7895 1  300             Rx   d 5 00 00 00 00 FF
 551.7945 1  300             Rx   d 6 00 00 00 00 00 FF
 551.8047 1  300             Rx   d 7 00 00 00 00 00 00 FF
 551.8172 1  300             Rx   d 8 00 00 00 00 00 00 00 FF
 553.0617 1  300             Rx   d 1 FF
 553.0668 1  300             Rx   d 2 00 FF
 553.0781 1  300             Rx   d 3 00 00 FF
 553.0910 1  300             Rx   d 4 00 00 00 FF
 553.0994 1  300             Rx   d 5 00 00 00 00 FF
 553.1046 1  300             Rx   d 6 00 00 00 00 00 FF
 553.1203 1  300             Rx   d 7 00 00 00 00 00 00 FF
 553.1295 1  300             Rx   d 8 00 00 00 00 00 00 00 FF
 554.2369 1  300             Rx   d 1 FF
 554.2424 1  300             Rx   d 2 00 FF
 554.2527 1  300             Rx   d 3 00 00 FF
 554.2572 1  300             Rx   d 4 00 00 00 FF
 554.2641 1  300             Rx   d 5 00 00 00 00 FF
 554.2724 1  300             Rx   d 6 00 00 00 00 00 FF
 554.2769 1  300             Rx   d 7 00 00 00 00 00 00 FF
 554.2859 1  300             Rx   d 8 00 00 00 00 00 00 00 FF
 555.5403 1  300             Rx   d 1 FF
 555.5456 1  300             Rx   d 2 00 FF
 555.5554 1  300             Rx   d 3 00 00 FF
 555.5900 1  300             Rx   d 4 00 00 00 FF
 555.6014 1  300             Rx   d 5 00 00 00 00 FF
 555.6070 1  300             Rx   d 6 00 00 00 00 00 FF
 555.6126 1  300             Rx   d 7 00 00 00 00 00 00 FF
 555.6198 1  300             Rx   d 8 00 00 00 00 00 00 00 FF
 573.9416 1  402             Rx   d 8 6C 69 74 65 73 68 61 76
 695.1651 1  50              Rx   d 7 00 00 00 00 00 00 00
 695.3655 1  50              Rx   d 7 01 00 00 00 00 00 00
 695.5667 1  50              Rx   d 7 02 00 00 00 00 00 00
 695.7683 1  50              Rx   d 7 03 00 00 00 00 00 00
 695.9698 1  50              Rx   d 7 04 00 00 00 00 00 00
 696.1714 1  50              Rx   d 7 05 00 00 00 00 00 00
 696.3720 1  50              Rx   d 7 06 00 00 00 00 00 00
 696.5740 1  50              Rx   d 7 07 00 00 00 00 00 00
 696.7754 1  50              Rx   d 7 08 00 00 00 00 00 00
 696.9769 1  50              Rx   d 7 09 00 00 00 00 00 00
 697.1789 1  50              Rx   d 7 0A 00 00 00 00 00 00
 697.3798 1  50              Rx   d 7 0B 00 00 00 00 00 00
 697.5812 1  50              Rx   d 7 0C 00 00 00 00 00 00
 697.7832 1  50              Rx   d 7 0D 00 00 00 00 00 00
 697.9849 1  50              Rx   d 7 0E 00 00 00 00 00 00
 698.1865 1  50              Rx   d 7 0F 00 00 00 00 00 00
 698.3869 1  50              Rx   d 7 10 00 00 00 00 00 00
 698.5889 1  50              Rx   d 7 11 00 00 00 00 00 00
 698.7893 1  50              Rx   d 7 12 00 00 00 00 00 00
 698.9908 1  50              Rx   d 7 13 00 00 00 00 00 00
 699.1923 1  50              Rx   d 7 14 00 00 00 00 00 00
 699.3943 1  50              Rx   d 7 15 00 00 00 00 00 00
 699.5968 1  50              Rx   d 7 16 00 00 00 00 00 00
 704.4222 1  56              Rx   d 7 00 00 00 00 00 00 00
 704.6237 1  56              Rx   d 7 01 00 00 00 00 00 00
 704.8255 1  56              Rx   d 7 02 00 00 00 00 00 00
 705.0272 1  56              Rx   d 7 03 00 00 00 00 00 00
 705.2282 1  56              Rx   d 7 04 00 00 00 00 00 00
 705.4286 1  56              Rx   d 7 05 00 00 00 00 00 00
 705.6295 1  56              Rx   d 7 06 00 00 00 00 00 00
 705.8309 1  56              Rx   d 7 07 00 00 00 00 00 00
 706.0321 1  56              Rx   d 7 08 00 00 00 00 00 00
 706.2332 1  56              Rx   d 7 09 00 00 00 00 00 00
 706.4351 1  56              Rx   d 7 0A 00 00 00 00 00 00
 706.6364 1  56              Rx   d 7 0B 00 00 00 00 00 00
 706.8379 1  56              Rx   d 7 0C 00 00 00 00 00 00
 707.0392 1  56              Rx   d 7 0D 00 00 00 00 00 00
 707.2406 1  56              Rx   d 7 0E 00 00 00 00 00 00
 707.4410 1  56              Rx   d 7 0F 00 00 00 00 00 00
 707.6430 1  56              Rx   d 7 10 00 00 00 00 00 00
 707.8445 1  56              Rx   d 7 11 00 00 00 00 00 00
 708.0450 1  56              Rx   d 7 12 00 00 00 00 00 00
 708.2453 1  56              Rx   d 7 13 00 00 00 00 00 00
 708.4459 1  56              Rx   d 7 14 00 00 00 00 00 00
 708.6463 1  56              Rx   d 7 15 00 00 00 00 00 00
 708.8465 1  56              Rx   d 7 16 00 00 00 00 00 00
 709.0476 1  56              Rx   d 7 17 00 00 00 00 00 00
 709.2478 1  56              Rx   d 7 18 00 00 00 00 00 00
 709.4492 1  56              Rx   d 7 19 00 00 00 00 00 00
 709.6495 1  56              Rx   d 7 1A 00 00 00 00 00 00
 709.8512 1  56              Rx   d 7 1B 00 00 00 00 00 00
 710.0524 1  56              Rx   d 7 1C 00 00 00 00 00 00
 710.2537 1  56              Rx   d 7 1D 00 00 00 00 00 00
 710.4550 1  56              Rx   d 7 1E 00 00 00 00 00 00
 710.6564 1  56              Rx   d 7 1F 00 00 00 00 00 00
 710.8576 1  56              Rx   d 7 20 00 00 00 00 00 00
 711.0286 1  403             Rx   d 7 65 63 61 6E 74 6F 6F
 711.0578 1  56              Rx   d 7 21 00 00 00 00 00 00
 711.2581 1  56              Rx   d 7 22 00 00 00 00 00 00
 711.4600 1  56              Rx   d 7 23 00 00 00 00 00 00
 711.6614 1  56              Rx   d 7 24 00 00 00 00 00 00
 711.8616 1  56              Rx   d 7 25 00 00 00 00 00 00
 712.0626 1  56              Rx   d 7 26 00 00 00 00 00 00
 712.2647 1  56              Rx   d 7 27 00 00 00 00 00 00
 712.4662 1  56              Rx   d 7 28 00 00 00 00 00 00
 712.6683 1  56              Rx   d 7 29 00 00 00 00 00 00
 712.8690 1  56              Rx   d 7 2A 00 00 00 00 00 00
 713.0713 1  56              Rx   d 7 2B 00 00 00 00 00 00
 713.2715 1  56              Rx   d 7 2C 00 00 00 00 00 00
 713.4722 1  56              Rx   d 7 2D 00 00 00 00 00 00
 713.6727 1  56              Rx   d 7 2E 00 00 00 00 00 00
 713.8731 1  56              Rx   d 7 2F 00 00 00 00 00 00
 714.0744 1  56              Rx   d 7 30 00 00 00 00 00 00
 714.2762 1  56              Rx   d 7 31 00 00 00 00 00 00
 714.4781 1  56              Rx   d 7 32 00 00 00 00 00 00
 714.6802 1  56              Rx   d 7 33 00 00 00 00 00 00
 714.8811 1  56              Rx   d 7 34 00 00 00 00 00 00
 715.0834 1  56              Rx   d 7 35 00 00 00 00 00 00
 715.2837 1  56              Rx   d 7 36 00 00 00 00 00 00
 715.4854 1  56              Rx   d 7 37 00 00 00 00 00 00
 715.6866 1  56              Rx   d 7 38 00 00 00 00 00 00
 715.8886 1  56              Rx   d 7 39 00 00 00 00 00 00
 716.0895 1  56              Rx   d 7 3A 00 00 00 00 00 00
 716.2903 1  56              Rx   d 7 3B 00 00 00 00 00 00
 716.4909 1  56              Rx   d 7 3C 00 00 00 00 00 00
 716.6915 1  56              Rx   d 7 3D 00 00 00 00 00 00
 716.8922 1  56              Rx   d 7 3E 00 00 00 00 00 00
 717.0930 1  56              Rx   d 7 3F 00 00 00 00 00 00
 717.2952 1  56              Rx   d 7 40 00 00 00 00 00 00
 717.4968 1  56              Rx   d 7 41 00 00 00 00 00 00
 717.6979 1  56              Rx   d 7 42 00 00 00 00 00 00
 717.8990 1  56              Rx   d 7 43 00 00 00 00 00 00
 718.0993 1  56              Rx   d 7 44 00 00 00 00 00 00
 718.3011 1  56              Rx   d 7 45 00 00 00 00 00 00
 718.5013 1  56              Rx   d 7 46 00 00 00 00 00 00
 718.7021 1  56              Rx   d 7 47 00 00 00 00 00 00
 718.9040 1  56              Rx   d 7 48 00 00 00 00 00 00
 719.1062 1  56              Rx   d 7 49 00 00 00 00 00 00
 719.3074 1  56              Rx   d 7 4A 00 00 00 00 00 00
 719.5076 1  56              Rx   d 7 4B 00 00 00 00 00 00
 719.7088 1  56              Rx   d 7 4C 00 00 00 00 00 00
 719.9097 1  56              Rx   d 7 4D 00 00 00 00 00 00
 720.1105 1  56              Rx   d 7 4E 00 00 00 00 00 00
 720.3112 1  56              Rx   d 7 4F 00 00 00 00 00 00
 720.5117 1  56              Rx   d 7 50 00 00 00 00 00 00
 720.7125 1  56              Rx   d 7 51 00 00 00 00 00 00
 720.9131 1  56              Rx   d 7 52 00 00 00 00 00 00
 721.1133 1  56              Rx   d 7 53 00 00 00 00 00 00
 721.3143 1  56              Rx   d 7 54 00 00 00 00 00 00
 721.5157 1  56              Rx   d 7 55 00 00 00 00 00 00
 721.7180 1  56              Rx   d 7 56 00 00 00 00 00 00
 721.9194 1  56              Rx   d 7 57 00 00 00 00 00 00
 722.1215 1  56              Rx   d 7 58 00 00 00 00 00 00
 722.3225 1  56              Rx   d 7 59 00 00 00 00 00 00
 763.3666 1  244             Rx   d 5 00 00 00 99 99
 763.3718 1  188             Rx   d 3 03 00 00
 763.3830 1  19B             Rx   d 3 00 00 0F
 763.3883 1  19B             Rx   d 3 00 00 10
 763.4006 1  244             Rx   d 5 00 00 00 99 99
 763.4056 1  188             Rx   d 3 03 00 00
 763.4177 1  19B             Rx   d 3 00 00 0F
 763.4230 1  19B             Rx   d 3 00 00 10
 763.4283 1  244             Rx   d 5 00 00 00 99 99
 763.4335 1  188             Rx   d 3 03 00 00
 763.4387 1  19B             Rx   d 3 00 00 0F
 763.4441 1  19B             Rx   d 3 00 00 10
